"InsetL [um]","ResFreq [GHz]","Freq [GHz]","re(Z(1,1)) []","im(Z(1,1)) []"
80,300,125,0.248334143588896,3.32468146922167
80,300,125.625,0.249112689016098,3.39028546244928
80,300,126.25,0.249890124779974,3.45568320532373
80,300,126.875,0.250666543430898,3.5208784386874
80,300,127.5,0.251442035997712,3.5858748390012
80,300,128.125,0.252216692055687,3.65067602007077
80,300,128.75,0.252990599793095,3.71528553472673
80,300,129.375,0.253763846076416,3.77970687646054
80,300,130,0.25453651651422,3.8439434810178
80,300,130.625,0.255308695519879,3.9079987279504
80,300,131.25,0.256080466373147,3.97187594212922
80,300,131.875,0.256851911280735,4.03557839521882
80,300,132.5,0.257623111435923,4.09910930711558
80,300,133.125,0.258394147077406,4.16247184735064
80,300,133.75,0.259165097547247,4.22566913645919
80,300,134.375,0.259936041348238,4.28870424731715
80,300,135,0.260707056200681,4.35158020644683
80,300,135.625,0.261478219098554,4.41429999529259
80,300,136.25,0.262249606365368,4.47686655146791
80,300,136.875,0.263021293709633,4.53928276997484
80,300,137.5,0.263793356280033,4.60155150439729
80,300,138.125,0.264565868720534,4.663675568069
80,300,138.75,0.2653389052253,4.72565773521751
80,300,139.375,0.266112539593741,4.78750074208515
80,300,140,0.266886845285572,4.84920728802814
80,300,140.625,0.267661895476173,4.91078003659479
80,300,141.25,0.268437763112162,4.97222161658396
80,300,141.875,0.269214520967493,5.03353462308477
80,300,142.5,0.269992241699937,5.09472161849846
80,300,143.125,0.270770997908355,5.15578513354363
80,300,143.75,0.271550862190567,5.21672766824563
80,300,144.375,0.272331907202222,5.27755169291135
80,300,145,0.273114205716575,5.33825964909015
80,300,145.625,0.273897830685468,5.39885395052212
80,300,146.25,0.274682855301549,5.45933698407461
80,300,146.875,0.275469353061967,5.51971111066807
80,300,147.5,0.276257397833651,5.57997866619214
80,300,148.125,0.277047063920317,5.64014196241315
80,300,148.75,0.277838426131513,5.70020328787398
80,300,149.375,0.278631559853734,5.76016490878743
80,300,150,0.27942654112395,5.82002906992415
80,300,150.625,0.280223446705723,5.87979799549623
80,300,151.25,0.281022354168128,5.9394738900377
80,300,151.875,0.281823341967783,5.99905893928309
80,300,152.5,0.282626489534272,6.05855531104518
80,300,153.125,0.283431877359238,6.11796515609344
80,300,153.75,0.284239587089499,6.17729060903431
80,300,154.375,0.285049701624551,6.23653378919483
80,300,155,0.285862305218803,6.29569680151099
80,300,155.625,0.286677483589089,6.35478173742247
80,300,156.25,0.287495324027733,6.41379067577528
80,300,156.875,0.288315915521885,6.47272568373408
80,300,157.5,0.289139348879492,6.53158881770595
80,300,158.125,0.289965716862651,6.59038212427761
80,300,158.75,0.290795114328949,6.64910764116815
80,300,159.375,0.29162763838148,6.70776739819938
80,300,160,0.292463388528434,6.7663634182863
80,300,160.625,0.293302466853088,6.8248977184501
80,300,161.25,0.294144978195139,6.88337231085655
80,300,161.875,0.294991030344525,6.94178920388251
80,300,162.5,0.295840734248861,7.00015040321405
80,300,163.125,0.296694204235814,7.05845791297932
80,300,163.75,0.297551558251954,7.11671373692002
80,300,164.375,0.298412918119493,7.17491987960566
80,300,165,0.299278409812995,7.23307834769473
80,300,165.625,0.300148163757758,7.29119115124794
80,300,166.25,0.301022315152299,7.34926030509855
80,300,166.875,0.301901004317364,7.40728783028561
80,300,167.5,0.302784377074195,7.4652757555566
80,300,168.125,0.303672585155242,7.5232261189462
80,300,168.75,0.304565786650724,7.58114096943899
80,300,169.375,0.305464146495023,7.63902236872447
80,300,170,0.306367836997295,7.69687239305371
80,300,170.625,0.307277038421191,7.75469313520801
80,300,171.25,0.308191939619443,7.81248670659086
80,300,171.875,0.309112738729426,7.87025523945602
80,300,172.5,0.310039643937141,7.92800088928574
80,300,173.125,0.310972874317441,7.98572583733478
80,300,173.75,0.311912660760011,8.04343229335779
80,300,174.375,0.312859246991518,8.10112249853967
80,300,175,0.313812890705893,8.15879872865061
80,300,175.625,0.314773864816608,8.21646329745056
80,300,176.25,0.315742458846585,8.27411856037057
80,300,176.875,0.316718980473846,8.33176691850212
80,300,177.5,0.317703757253673,8.38941082292927
80,300,178.125,0.318697138541273,8.44705277944334
80,300,178.75,0.319699497642604,8.50469535368464
80,300,179.375,0.320711234225521,8.56234117676198
80,300,180,0.321732777028414,8.61999295140752
80,300,180.625,0.322764586909814,8.67765345873259
80,300,181.25,0.323807160289587,8.73532556565902
80,300,181.875,0.324861033040918,8.79301223311161
80,300,182.5,0.325926784902767,8.85071652506946
80,300,183.125,0.327005044494522,8.9084416185886
80,300,183.75,0.328096495029604,8.96619081492514
80,300,184.375,0.329201880842396,9.02396755190806
80,300,185,0.330322014864338,9.0817754177339
80,300,185.625,0.331457787211333,9.13961816638311
80,300,186.25,0.332610175075934,9.19749973488994
80,300,186.875,0.333780254156822,9.2554242627361
80,300,187.5,0.334969211905521,9.31339611368338
80,300,188.125,0.336178362928641,9.37141990041444
80,300,188.75,0.337409166956565,9.429500512415
80,300,189.375,0.338663249879119,9.487643147607
80,300,190,0.339942428461115,9.54585334833441
80,300,190.625,0.341248739491317,9.60413704241305
80,300,191.25,0.34258447429556,9.66250059008865
80,300,191.875,0.343952219769534,9.72095083790709
80,300,192.5,0.345354907372784,9.77949518069416
80,300,193.125,0.346795871892081,9.83814163307643
80,300,193.75,0.348278922254713,9.89689891225862
80,300,194.375,0.349808427284759,9.95577653411784
80,300,195,0.351389420094876,10.0147849250936
80,300,195.625,0.353027725856509,10.0739355528606
80,300,196.25,0.354730119081373,10.1332410793852
80,300,196.875,0.356504518399902,10.1927155407093
80,300,197.5,0.358360229311281,10.2523745586885
80,300,198.125,0.360308248750255,10.31223559096
80,300,198.75,0.362361649918759,10.3723182266255
80,300,199.375,0.364536072171038,10.4326445364905
80,300,200,0.366850349555569,10.4932394881221
80,300,200.625,0.369327323986113,10.5541314373069
80,300,201.25,0.371994906539981,10.6153527083239
80,300,201.875,0.374887475460169,10.6769402750522
80,300,202.5,0.378047735683342,10.7389365518711
80,300,203.125,0.381529217618414,10.8013902948035
80,300,203.75,0.385399670845446,10.8643575941782
80,300,204.375,0.389745724223464,10.9279029002301
80,300,205,0.394679357141491,10.9920999434254
80,300,205.625,0.400346986677163,11.0570322549934
80,300,206.25,0.406942364725581,11.1227926882591
80,300,206.875,0.414725054078623,11.1894807462307
80,300,207.5,0.424047071207801,11.2571953538148
80,300,208.125,0.435391349296361,11.3260184113359
80,300,208.75,0.449426736465803,11.3959799118975
80,300,209.375,0.467084168208458,11.4669864395046
80,300,210,0.489653574670592,11.5386776502777
80,300,210.625,0.518879297557467,11.6101446346481
80,300,211.25,0.556961362714452,11.6794001864963
80,300,211.875,0.606178307472082,11.7424766284354
80,300,212.5,0.667442894199903,11.7922571906653
80,300,213.125,0.736736719687163,11.8182482756071
80,300,213.75,0.799957668628878,11.8109129482173
80,300,214.375,0.833517522393321,11.7734870195985
80,300,215,0.820788005736834,11.7299492996999
80,300,215.625,0.769740905662663,11.7094118897267
80,300,216.25,0.703935907296578,11.7232830787762
80,300,216.875,0.641932434292473,11.7653918301051
80,300,217.5,0.591121621516007,11.8247737218433
80,300,218.125,0.551990998912955,11.8929333044418
80,300,218.75,0.522575475346989,11.9648262814099
80,300,219.375,0.500595669700878,12.0378211959219
80,300,220,0.484140052931911,12.1106614047889
80,300,220.625,0.471764031058172,12.182807701301
80,300,221.25,0.462416698281253,12.2540775963842
80,300,221.875,0.455341831396856,12.3244585134783
80,300,222.5,0.449994327746113,12.3940136268716
80,300,223.125,0.4459782108764,12.4628352859067
80,300,223.75,0.443002788885212,12.5310225497907
80,300,224.375,0.440852167005681,12.5986708611539
80,300,225,0.43936409951201,12.6658677827968
80,300,225.625,0.438415251560022,12.7326917115368
80,300,226.25,0.43791084244832,12.7992120002932
80,300,226.875,0.437777293784737,12.8654896938133
80,300,227.5,0.437956953521749,12.9315784808441
80,300,228.125,0.438404267457947,12.9975256701892
80,300,228.75,0.439082970474034,13.0633731032476
80,300,229.375,0.439964003880825,13.1291579690901
80,300,230,0.441023955369729,13.1949135146121
80,300,230.625,0.442243879076884,13.2606696547332
80,300,231.25,0.443608394967526,13.3264534927885
80,300,231.875,0.445104995512673,13.392289762771
80,300,232.5,0.446723507673372,13.4582012048307
80,300,233.125,0.448455672311117,13.5242088844069
80,300,233.75,0.450294813164462,13.5903324640781
80,300,234.375,0.452235574720591,13.6565904359043
80,300,235,0.454273713514319,13.7230003208324
80,300,235.625,0.456405931189066,13.7895788406684
80,300,236.25,0.458629740454056,13.8563420672162
80,300,236.875,0.460943357152822,13.923305552413
80,300,237.5,0.463345613215463,13.9904844426533
80,300,238.125,0.465835886442403,14.0578935799662
80,300,238.75,0.468414043961147,14.1255475922744
80,300,239.375,0.471080396881386,14.1934609746033
80,300,240,0.473835664201985,14.2616481628167
80,300,240.625,0.476680944432768,14.3301236012107
80,300,241.25,0.479617693715297,14.3989018051033
80,300,241.875,0.482647709479196,14.467997419389
80,300,242.5,0.485773118871524,14.5374252739023
80,300,243.125,0.48899637135747,14.6072004363164
80,300,243.75,0.492320235020515,14.6773382632242
80,300,244.375,0.495747796196078,14.7478544499693
80,300,245,0.499282462160467,14.8187650797421
80,300,245.625,0.502927966669879,14.8900866724086
80,300,246.25,0.50668837820653,14.9618362335025
80,300,246.875,0.510568110842656,15.0340313037888
80,300,247.5,0.514571937680483,15.1066900097812
80,300,248.125,0.518705006869069,15.1798311155885
80,300,248.75,0.522972860238206,15.2534740764556
80,300,249.375,0.52738145462712,15.3276390943635
80,300,250,0.531937186021837,15.402347176056
80,300,250.625,0.536646916651219,15.4776201938722
80,300,251.25,0.541518005228713,15.5534809497708
80,300,251.875,0.546558340564832,15.6299532429574
80,300,252.5,0.551776378816129,15.7070619415408
80,300,253.125,0.557181184680017,15.7848330586777
80,300,253.75,0.562782476892191,15.8632938336924
80,300,254.375,0.568590678435683,15.9424728186976
80,300,255,0.574616971928676,16.0223999712853
80,300,255.625,0.580873360722951,16.1031067539035
80,300,256.25,0.58737273631782,16.1846262405937
80,300,256.875,0.594128952776854,16.2669932318224
80,300,257.5,0.60115690892809,16.3502443782145
80,300,258.125,0.608472639235213,16.434418314075
80,300,258.75,0.616093414348449,16.5195558016737
80,300,259.375,0.6240378524838,16.6056998873709
80,300,260,0.632326042938963,16.6928960707744
80,300,260.625,0.640979683239055,16.7811924882443
80,300,261.25,0.650022231618039,16.8706401122076
80,300,261.875,0.659479076788184,16.9612929679023
80,300,262.5,0.669377727235689,17.0532083693542
80,300,263.125,0.679748022612887,17.1464471765892
80,300,263.75,0.690622370184575,17.2410740763142
80,300,264.375,0.702036009738104,17.3371578885539
80,300,265,0.714027310896415,17.4347719020205
80,300,265.625,0.72663810739432,17.5339942413131
80,300,266.25,0.739914073609163,17.6349082694095
80,300,266.875,0.753905149499039,17.7376030293185
80,300,267.5,0.768666021120828,17.842173729217
80,300,268.125,0.784256665108556,17.9487222759073
80,300,268.75,0.800742966928827,18.0573578619986
80,300,269.375,0.818197424441945,18.1681976128542
80,300,270,0.836699950343679,18.281367300046
80,300,270.625,0.856338789515585,18.3970021288408
80,300,271.25,0.877211570261485,18.5152476080891
80,300,271.875,0.899426511964262,18.6362605118198
80,300,272.5,0.923103816000424,18.7602099428313
80,300,273.125,0.948377271971576,18.8872785096253
80,300,273.75,0.975396117669943,19.0176636291015
80,300,274.375,1.00432719896091,19.1515789685019
80,300,275,1.03535748528467,19.2892560410825
80,300,275.625,1.06869700818544,19.4309459708012
80,300,276.25,1.10458230472415,19.5769214417901
80,300,276.875,1.1432804655232,19.7274788482988
80,300,277.5,1.18509390942812,19.8829406598059
80,300,278.125,1.23036603450521,20.0436580136124
80,300,278.75,1.27948792980239,20.2100135426918
80,300,279.375,1.33290637588909,20.3824244388275
80,300,280,1.3911334171072,20.5613457385114
80,300,280.625,1.45475785787231,20.7472737994089
80,300,281.25,1.52445912332991,20.9407499050078
80,300,281.875,1.60102403642878,21.1423638893532
80,300,282.5,1.68536720571975,21.3527576051526
80,300,283.125,1.77855589942846,21.5726279560661
80,300,283.75,1.88184051224879,21.8027290614448
80,300,284.375,1.99669202495288,22.043872894888
80,300,285,2.12484822882258,22.2969274004824
80,300,285.625,2.26837095431339,22.5628105879153
80,300,286.25,2.42971712303046,22.842478357631
80,300,286.875,2.61182714504347,23.1369026856779
80,300,287.5,2.81823500358933,23.4470351172981
80,300,288.125,3.05320525938129,23.7737479957543
80,300,288.75,3.32190303270573,24.117742064266
80,300,289.375,3.63060347078418,24.4794033961356
80,300,290,3.98694661691365,24.8585841220542
80,300,290.625,4.40024062759131,25.2542688732612
80,300,291.25,4.88180832489361,25.664070637222
80,300,291.875,5.44535418936794,26.0834741499277
80,300,292.5,6.1072920645921,26.5047113057645
80,300,293.125,6.88690227157783,26.9151144995259
80,300,293.75,7.80605490606376,27.2947645074846
80,300,294.375,8.88800794275213,27.6132705045542
80,300,295,10.1544310255826,27.8256894231897
80,300,295.625,11.6193417886432,27.8681108131042
80,300,296.25,13.2783035374798,27.6546280186696
80,300,296.875,15.0917685664551,27.0795850389127
80,300,297.5,16.9644252519989,26.0316939291876
80,300,298.125,18.729545720809,24.4270957677112
80,300,298.75,20.1568827641912,22.2605396565326
80,300,299.375,21.0033569150423,19.6533522963215
80,300,300,21.100946286084,16.8570404852174
80,300,300.625,20.433495013768,14.1860435244943
80,300,301.25,19.1440045519653,11.9100855584383
80,300,301.875,17.4666125023498,10.1762957000246
80,300,302.5,15.6367874596221,9.00124640384153
80,300,303.125,13.8331658495077,8.31381584103185
80,300,303.75,12.1632550395132,8.00729534277613
80,300,304.375,10.6760940334001,7.97561799565903
80,300,305,9.38244758319466,8.13026219714465
80,300,305.625,8.27208807939778,8.4041763988267
80,300,306.25,7.32541255247549,8.74952780295501
80,300,306.875,6.52016771543349,9.13354397513591
80,300,307.5,5.83487664207188,9.53444616932474
80,300,308.125,5.25032059841114,9.93815387862431
80,300,308.75,4.74998012551913,10.3358387495542
80,300,309.375,4.3199705050308,10.7221929262326
80,300,310,3.94876418742543,11.0942360344589
80,300,310.625,3.62684964391445,11.4505064209832
80,300,311.25,3.34639711584957,11.7905183318473
80,300,311.875,3.10096034489037,12.1144000437651
80,300,312.5,2.88522279447544,12.422653967031
80,300,313.125,2.69478736152394,12.7159985491127
80,300,313.75,2.52600472387384,12.9952648930599
80,300,314.375,2.3758343810717,13.2613299163771
80,300,315,2.24173261868364,13.5150738774716
80,300,315.625,2.12156230014708,13.7573541168719
80,300,316.25,2.01352019836076,13.9889895484715
80,300,316.875,1.9160783564426,14.2107522341233
80,300,317.5,1.82793664893759,14.4233635796443
80,300,318.125,1.74798428517072,14.6274934993207
80,300,318.75,1.67526846087767,14.823761440654
80,300,319.375,1.60896873638776,15.0127385286008
80,300,320,1.54837601501167,15.1949503370096
80,300,320.625,1.49287522849059,15.3708799631026
80,300,321.25,1.44193102000704,15.5409711946586
80,300,321.875,1.39507585976918,15.7056316364834
80,300,322.5,1.3519001419671,15.8652357145934
80,300,323.125,1.31204390162644,16.0201275112721
80,300,323.75,1.27518986079269,16.1706234072302
80,300,324.375,1.24105756966122,16.317014522202
80,300,325,1.2093984529128,16.4595689550009
80,300,325.625,1.179991607103,16.5985338300563
80,300,326.25,1.15264022341721,16.7341371609736
80,300,326.875,1.12716853294507,16.8665895435137
80,300,327.5,1.10341919002154,16.9960856911444
80,300,328.125,1.08125102404517,17.1228058263624
80,300,328.75,1.06053710223576,17.2469169405831
80,300,329.375,1.04116305559893,17.3685739347306
80,300,330,1.02302562836987,17.4879206518482
80,300,330.625,1.00603141776604,17.6050908121762
80,300,331.25,0.990095776266219,17.7202088602582
80,300,331.875,0.975141853076238,17.8333907327707
80,300,332.5,0.96109975511568,17.9447445549552
80,300,333.125,0.947905810907672,18.0543712727583
80,300,333.75,0.935501923290251,18.1623652270816
80,300,334.375,0.923834998984245,18.2688146758939
80,300,335,0.912856444824163,18.373802269367
80,300,335.625,0.902521721945304,18.4774054826689
80,300,336.25,0.892789950471585,18.5796970105633
80,300,336.875,0.883623558304297,18.680745127538
80,300,337.5,0.874987968505429,18.7806140167974
80,300,338.125,0.866851320526786,18.8793640711078
80,300,338.75,0.85918422118006,18.9770521681775
80,300,339.375,0.851959521792578,19.0737319229775
80,300,340,0.84515211846178,19.1694539191616
80,300,340.625,0.838738772723757,19.2642659215262
80,300,341.25,0.832697950295344,19.3582130712527
80,300,341.875,0.827009675845904,19.4513380655017
80,300,342.5,0.821655402010328,19.5436813227712
80,300,343.125,0.816617891075235,19.6352811352899
80,300,343.75,0.811881107961536,19.7261738095945
80,300,344.375,0.807430123291703,19.8163937963253
80,300,345,0.803251025474136,19.905973810177
80,300,345.625,0.799330840861984,19.9949449408487
80,300,346.25,0.795657461152971,20.0833367557615
80,300,346.875,0.792219577292011,20.1711773952341
80,300,347.5,0.789006619221767,20.2584936607473
80,300,348.125,0.786008700899475,20.345311096868
80,300,348.75,0.783216570062449,20.4316540673495
80,300,349.375,0.780621562280991,20.5175458258815
80,300,350,0.778215558887317,20.6030085819164
80,300,350.625,0.775990948412755,20.6880635619654
80,300,351.25,0.773940591204238,20.7727310667166
80,300,351.875,0.772057786925454,20.8570305243047
80,300,352.5,0.770336244678054,20.9409805400245
80,300,353.125,0.768770055505734,21.024598942763
80,300,353.75,0.767353667067346,21.1079028283955
80,300,354.375,0.766081860286953,21.1909086003752
80,300,355,0.76494972780731,21.273632007723
80,300,355.625,0.763952654090548,21.3560881806081
80,300,356.25,0.763086297024503,21.4382916636965
80,300,356.875,0.76234657090694,21.5202564474262
80,300,357.5,0.761729630691967,21.6019959973587
80,300,358.125,0.761231857393491,21.6835232817421
80,300,358.75,0.7608498445508,21.7648507974111
80,300,359.375,0.760580385669457,21.8459905941401
80,300,360,0.760420462559161,21.9269542975554
80,300,360.625,0.760367234496763,22.0077531307046
80,300,361.25,0.760418028149355,22.0883979343749
80,300,361.875,0.760570328198112,22.1688991862427
80,300,362.5,0.760821768608244,22.2492670189336
80,300,363.125,0.761170124495977,22.329511237064
80,300,363.75,0.761613304546846,22.4096413333299
80,300,364.375,0.762149343944046,22.4896665037064
80,300,365,0.762776397768859,22.5695956618136
80,300,365.625,0.763492734838255,22.6494374525016
80,300,366.25,0.764296731947738,22.7292002647058
80,300,366.875,0.765186868490264,22.8088922436163
80,300,367.5,0.766161721424064,22.8885213022042
80,300,368.125,0.767219960564856,22.968095132146
80,300,368.75,0.768360344179414,23.0476212141801
80,300,369.375,0.769581714859678,23.1271068279331
80,300,370,0.770882995657968,23.2065590612446
80,300,370.625,0.77226318646554,23.2859848190222
80,300,371.25,0.773721360617916,23.365390831655
80,300,371.875,0.775256661711918,23.4447836630091
80,300,372.5,0.776868300620269,23.5241697180322
80,300,373.125,0.778555552690796,23.6035552499881
80,300,373.75,0.780317755118194,23.6829463673428
80,300,374.375,0.782154304477353,23.7623490403228
80,300,375,0.78406465440773,23.8417691071626
