"InsetL [um]","ResFreq [GHz]","Freq [GHz]","re(Z(1,1)) []","im(Z(1,1)) []"
100,300,125,0.242042937490982,3.16728817974852
100,300,125.625,0.243549117249533,3.2310797785296
100,300,126.25,0.245037449075649,3.29466021881166
100,300,126.875,0.246508318952318,3.35803299393167
100,300,127.5,0.247962103660118,3.42120153120455
100,300,128.125,0.249399171046969,3.48416919353115
100,300,128.75,0.250819880288775,3.54693928095981
100,300,129.375,0.252224582141319,3.60951503220291
100,300,130,0.253613619183712,3.67189962610985
100,300,130.625,0.254987326053746,3.73409618309809
100,300,131.25,0.256346029675405,3.79610776654354
100,300,131.875,0.257690049478907,3.85793738413154
100,300,132.5,0.259019697613533,3.91958798916997
100,300,133.125,0.260335279153424,3.9810624818655
100,300,133.75,0.261637092296774,4.04236371056428
100,300,134.375,0.262925428558517,4.10349447295822
100,300,135,0.264200572956798,4.16445751725798
100,300,135.625,0.265462804193527,4.22525554333362
100,300,136.25,0.266712394829086,4.28589120382419
100,300,136.875,0.267949611451524,4.34636710521693
100,300,137.5,0.269174714840389,4.40668580889735
100,300,138.125,0.270387960125427,4.46684983217086
100,300,138.75,0.271589596940255,4.52686164925701
100,300,139.375,0.27277986957128,4.58672369225711
100,300,140,0.273959017101964,4.64643835209606
100,300,140.625,0.275127273552656,4.70600797943927
100,300,141.25,0.276284868016074,4.76543488558531
100,300,141.875,0.277432024788683,4.82472134333514
100,300,142.5,0.278568963498032,4.88386958783856
100,300,143.125,0.27969589922622,4.94288181741869
100,300,143.75,0.280813042629658,5.00176019437497
100,300,144.375,0.281920600055181,5.06050684576546
100,300,145,0.283018773652712,5.11912386416907
100,300,145.625,0.284107761484561,5.1776133084282
100,300,146.25,0.285187757631438,5.2359772043725
100,300,146.875,0.286258952295375,5.29421754552425
100,300,147.5,0.28732153189959,5.35233629378589
100,300,148.125,0.288375679185432,5.41033538011027
100,300,148.75,0.289421573306476,5.4682167051541
100,300,149.375,0.290459389919901,5.52598213991507
100,300,150,0.29148930127521,5.58363352635319
100,300,150.625,0.292511476300381,5.64117267799666
100,300,151.25,0.293526080685598,5.69860138053294
100,300,151.875,0.294533276964482,5.75592139238515
100,300,152.5,0.295533224593139,5.81313444527458
100,300,153.125,0.29652608002684,5.87024224476929
100,300,153.75,0.297511996794631,5.9272464708196
100,300,154.375,0.298491125571807,5.98414877828056
100,300,155,0.299463614250338,6.04095079742185
100,300,155.625,0.300429608007365,6.09765413442552
100,300,156.25,0.301389249371782,6.15426037187181
100,300,156.875,0.302342678288969,6.2107710692135
100,300,157.5,0.303290032183745,6.26718776323894
100,300,158.125,0.304231446021595,6.32351196852425
100,300,158.75,0.305167052368239,6.37974517787489
100,300,159.375,0.306096981447541,6.4358888627569
100,300,160,0.307021361197907,6.49194447371809
100,300,160.625,0.307940317327103,6.54791344079947
100,300,161.25,0.308853973365635,6.60379717393721
100,300,161.875,0.309762450718698,6.65959706335531
100,300,162.5,0.310665868716722,6.71531447994925
100,300,163.125,0.311564344664598,6.770950775661
100,300,163.75,0.312457993889576,6.82650728384534
100,300,164.375,0.31334692978793,6.881985319628
100,300,165,0.314231263870402,6.93738618025572
100,300,165.625,0.31511110580641,6.99271114543832
100,300,166.25,0.315986563467146,7.04796147768327
100,300,166.875,0.316857742967578,7.10313842262271
100,300,167.5,0.317724748707319,7.15824320933321
100,300,168.125,0.318587683410457,7.21327705064848
100,300,168.75,0.31944664816441,7.26824114346516
100,300,169.375,0.320301742457719,7.3231366690419
100,300,170,0.321153064216936,7.37796479329192
100,300,170.625,0.322000709842562,7.43272666706914
100,300,171.25,0.322844774244054,7.48742342644818
100,300,171.875,0.323685350874019,7.54205619299821
100,300,172.5,0.324522531761483,7.59662607405093
100,300,173.125,0.325356407544354,7.65113416296288
100,300,173.75,0.326187067501114,7.70558153937196
100,300,174.375,0.327014599581674,7.75996926944867
100,300,175,0.327839090437512,7.8142984061419
100,300,175.625,0.328660625451056,7.86856998941954
100,300,176.25,0.32947928876433,7.92278504650407
100,300,176.875,0.330295163306976,7.97694459210314
100,300,177.5,0.331108330823479,8.03104962863534
100,300,178.125,0.331918871899853,8.08510114645129
100,300,178.75,0.332726865989617,8.13910012405014
100,300,179.375,0.333532391439178,8.19304752829154
100,300,180,0.334335525512573,8.24694431460329
100,300,180.625,0.335136344415687,8.30079142718471
100,300,181.25,0.335934923319848,8.35458979920584
100,300,181.875,0.336731336384855,8.40834035300258
100,300,182.5,0.33752565678154,8.46204400026788
100,300,183.125,0.338317956713722,8.51570164223903
100,300,183.75,0.339108307439675,8.56931416988122
100,300,184.375,0.339896779293135,8.62288246406733
100,300,185,0.34068344170379,8.67640739575423
100,300,185.625,0.341468363217274,8.72988982615545
100,300,186.25,0.342251611514767,8.78333060691048
100,300,186.875,0.343033253432093,8.83673058025076
100,300,187.5,0.343813354978418,8.89009057916222
100,300,188.125,0.344591981354515,8.94341142754486
100,300,188.75,0.345369196970588,8.99669394036901
100,300,189.375,0.346145065463757,9.04993892382863
100,300,190,0.346919649715109,9.10314717549162
100,300,190.625,0.347693011866364,9.15631948444716
100,300,191.25,0.348465213336224,9.20945663145029
100,300,191.875,0.349236314836284,9.26255938906364
100,300,192.5,0.350006376386672,9.31562852179646
100,300,193.125,0.350775457331276,9.36866478624099
100,300,193.75,0.351543616352706,9.42166893120626
100,300,194.375,0.352310911486877,9.47464169784926
100,300,195,0.353077400137311,9.5275838198038
100,300,195.625,0.353843139089107,9.58049602330671
100,300,196.25,0.354608184522658,9.6333790273219
100,300,196.875,0.355372592026987,9.68623354366192
100,300,197.5,0.356136416612894,9.73906027710738
100,300,198.125,0.356899712725804,9.79185992552403
100,300,198.75,0.357662534258281,9.8446331799778
100,300,199.375,0.358424934562339,9.89738072484762
100,300,200,0.35918696646151,9.95010323793619
100,300,200.625,0.359948682262614,10.0028013905788
100,300,201.25,0.360710133767299,10.0554758477499
100,300,201.875,0.361471372283372,10.1081272681681
100,300,202.5,0.362232448635857,10.1607563043993
100,300,203.125,0.362993413177862,10.2133636029571
100,300,203.75,0.363754315801198,10.2659498044026
100,300,204.375,0.364515205946819,10.3185155434417
100,300,205,0.365276132614995,10.3710614490208
100,300,205.625,0.36603714437535,10.4235881444208
100,300,206.25,0.366798289376651,10.4760962473495
100,300,206.875,0.367559615356397,10.5285863700323
100,300,207.5,0.368321169650276,10.5810591193009
100,300,208.125,0.369082999201395,10.6335150966818
100,300,208.75,0.369845150569289,10.6859548984813
100,300,209.375,0.370607669938862,10.7383791158706
100,300,210,0.371370603129063,10.7907883349687
100,300,210.625,0.372133995601411,10.8431831369238
100,300,211.25,0.372897892468404,10.8955640979939
100,300,211.875,0.373662338501711,10.9479317896252
100,300,212.5,0.374427378140245,11.0002867785299
100,300,213.125,0.375193055498051,11.0526296267621
100,300,213.75,0.375959414372086,11.1049608917928
100,300,214.375,0.376726498249838,11.1572811265833
100,300,215,0.377494350316765,11.209590879658
100,300,215.625,0.378263013463684,11.2618906951746
100,300,216.25,0.379032530293919,11.3141811129952
100,300,216.875,0.379802943130398,11.3664626687539
100,300,217.5,0.380574294022599,11.4187358939254
100,300,218.125,0.381346624753331,11.4710013158908
100,300,218.75,0.382119976845474,11.5232594580033
100,300,219.375,0.382894391568511,11.5755108396525
100,300,220,0.383669909945015,11.6277559763274
100,300,220.625,0.384446572756968,11.679995379679
100,300,221.25,0.38522442055201,11.7322295575814
100,300,221.875,0.386003493649543,11.7844590141919
100,300,222.5,0.386783832146762,11.83668425001
100,300,223.125,0.387565475924578,11.8889057619363
100,300,223.75,0.388348464653395,11.9411240433295
100,300,224.375,0.389132837798846,11.9933395840626
100,300,225,0.389918634627417,12.045552870579
100,300,225.625,0.390705894211937,12.0977643859466
100,300,226.25,0.391494655437047,12.1499746099119
100,300,226.875,0.392284957004496,12.2021840189528
100,300,227.5,0.393076837438435,12.2543930863309
100,300,228.125,0.393870335090542,12.3066022821424
100,300,228.75,0.394665488145147,12.3588120733692
100,300,229.375,0.395462334624178,12.4110229239279
100,300,230,0.396260912392133,12.4632352947193
100,300,230.625,0.397061259160873,12.5154496436763
100,300,231.25,0.397863412494441,12.5676664258114
100,300,231.875,0.398667409813691,12.6198860932635
100,300,232.5,0.399473288400952,12.6721090953439
100,300,233.125,0.400281085404539,12.7243358785814
100,300,233.75,0.40109083784326,12.7765668867672
100,300,234.375,0.401902582610793,12.8288025609987
100,300,235,0.402716356480064,12.8810433397228
100,300,235.625,0.403532196107461,12.9332896587787
100,300,236.25,0.40435013803714,12.9855419514396
100,300,236.875,0.405170218705062,13.0378006484546
100,300,237.5,0.405992474443179,13.0900661780887
100,300,238.125,0.406816941483414,13.1423389661639
100,300,238.75,0.40764365596165,13.1946194360981
100,300,239.375,0.408472653921626,13.2469080089444
100,300,240,0.409303971318842,13.2992051034295
100,300,240.625,0.4101376440243,13.3515111359916
100,300,241.25,0.410973707828318,13.4038265208177
100,300,241.875,0.411812198444204,13.4561516698806
100,300,242.5,0.412653151511903,13.5084869929749
100,300,243.125,0.413496602601605,13.5608328977529
100,300,243.75,0.414342587217326,13.61318978976
100,300,244.375,0.415191140800355,13.6655580724692
100,300,245,0.416042298732778,13.7179381473156
100,300,245.625,0.416896096340856,13.77033041373
100,300,246.25,0.417752568898415,13.8227352691725
100,300,246.875,0.418611751630173,13.8751531091652
100,300,247.5,0.419473679715018,13.9275843273245
100,300,248.125,0.420338388289263,13.9800293153932
100,300,248.75,0.421205912449854,14.0324884632722
100,300,249.375,0.422076287257554,14.0849621590512
100,300,250,0.422949547740024,14.1374507890397
100,300,250.625,0.423825728894986,14.1899547377971
100,300,251.25,0.424704865693202,14.2424743881628
100,300,251.875,0.425586993081581,14.2950101212854
100,300,252.5,0.426472145986093,14.3475623166516
100,300,253.125,0.427360359314744,14.4001313521155
100,300,253.75,0.428251667960521,14.4527176039264
100,300,254.375,0.429146106804259,14.5053214467568
100,300,255,0.430043710717492,14.5579432537302
100,300,255.625,0.43094451456527,14.6105833964479
100,300,256.25,0.431848553209006,14.6632422450164
100,300,256.875,0.432755861509192,14.7159201680734
100,300,257.5,0.433666474328134,14.7686175328143
100,300,258.125,0.434580426532696,14.821334705018
100,300,258.75,0.435497752996965,14.8740720490721
100,300,259.375,0.436418488604919,14.9268299279987
100,300,260,0.43734266825302,14.9796087034786
100,300,260.625,0.438270326852868,15.0324087358763
100,300,261.25,0.439201499333768,15.0852303842641
100,300,261.875,0.440136220645251,15.1380740064463
100,300,262.5,0.441074525759663,15.1909399589822
100,300,263.125,0.442016449674634,15.2438285972105
100,300,263.75,0.442962027415582,15.2967402752713
100,300,264.375,0.44391129403819,15.3496753461298
100,300,265,0.444864284630836,15.4026341615984
100,300,265.625,0.445821034317005,15.4556170723589
100,300,266.25,0.446781578257741,15.5086244279847
100,300,266.875,0.447745951653979,15.5616565769626
100,300,267.5,0.448714189748953,15.6147138667142
100,300,268.125,0.449686327830533,15.6677966436168
100,300,268.75,0.450662401233523,15.720905253025
100,300,269.375,0.451642445342037,15.7740400392911
100,300,270,0.452626495591738,15.8272013457856
100,300,270.625,0.453614587472142,15.8803895149175
100,300,271.25,0.454606756528891,15.9336048881544
100,300,271.875,0.455603038365977,15.9868478060423
100,300,272.5,0.456603468647988,16.0401186082253
100,300,273.125,0.457608083102341,16.0934176334645
100,300,273.75,0.458616917521447,16.146745219658
100,300,274.375,0.459630007764943,16.200101703859
100,300,275,0.460647389761848,16.253487422295
100,300,275.625,0.461669099512716,16.3069027103865
100,300,276.25,0.462695173091812,16.3603479027648
100,300,276.875,0.463725646649242,16.4138233332906
100,300,277.5,0.464760556413066,16.4673293350717
100,300,278.125,0.465799938691439,16.5208662404809
100,300,278.75,0.466843829874675,16.5744343811735
100,300,279.375,0.467892266437393,16.6280340881049
100,300,280,0.468945284940561,16.6816656915472
100,300,280.625,0.470002922033598,16.7353295211072
100,300,281.25,0.471065214456404,16.7890259057424
100,300,281.875,0.472132199041445,16.842755173778
100,300,282.5,0.47320391271579,16.8965176529234
100,300,283.125,0.47428039250313,16.9503136702889
100,300,283.75,0.475361675525838,17.0041435524012
100,300,284.375,0.476447799006975,17.05800762522
100,300,285,0.477538800272287,17.1119062141537
100,300,285.625,0.478634716752247,17.1658396440751
100,300,286.25,0.479735585984023,17.2198082393368
100,300,286.875,0.480841445613485,17.273812323787
100,300,287.5,0.481952333397182,17.3278522207846
100,300,288.125,0.483068287204329,17.3819282532141
100,300,288.75,0.484189345018802,17.4360407435012
100,300,289.375,0.485315544941037,17.4901900136268
100,300,290,0.486446925190084,17.5443763851425
100,300,290.625,0.487583524105523,17.5986001791848
100,300,291.25,0.488725380149382,17.6528617164895
100,300,291.875,0.489872531908145,17.7071613174062
100,300,292.5,0.491025018094683,17.7614993019125
100,300,293.125,0.492182877550177,17.8158759896279
100,300,293.75,0.493346149246065,17.8702916998281
100,300,294.375,0.49451487228599,17.9247467514583
100,300,295,0.49568908590771,17.9792414631473
100,300,295.625,0.496868829485044,18.033776153221
100,300,296.25,0.49805414252978,18.0883511397161
100,300,296.875,0.499245064693635,18.1429667403929
100,300,297.5,0.500441635770126,18.1976232727491
100,300,298.125,0.501643895696553,18.2523210540327
100,300,298.75,0.502851884555847,18.3070604012553
100,300,299.375,0.504065642578554,18.3618416312045
100,300,300,0.5052852101447,18.4166650604575
100,300,300.625,0.506510627785745,18.4715310053932
100,300,301.25,0.50774193618647,18.5264397822051
100,300,301.875,0.508979176186906,18.5813917069139
100,300,302.5,0.510222388784248,18.6363870953799
100,300,303.125,0.511471615134768,18.6914262633151
100,300,303.75,0.512726896555738,18.746509526296
100,300,304.375,0.513988274527312,18.8016371997754
100,300,305,0.515255790694497,18.8568095990945
100,300,305.625,0.516529486869025,18.912027039495
100,300,306.25,0.517809405031273,18.967289836131
100,300,306.875,0.51909558733224,19.0225983040808
100,300,307.5,0.520388076095374,19.0779527583588
100,300,308.125,0.521686913818584,19.1333535139268
100,300,308.75,0.522992143176095,19.1888008857062
100,300,309.375,0.524303807020445,19.2442951885887
100,300,310,0.525621948384339,19.2998367374487
100,300,310.625,0.52694661048264,19.3554258471539
100,300,311.25,0.528277836714285,19.4110628325769
100,300,311.875,0.52961567066421,19.4667480086064
100,300,312.5,0.530960156105312,19.5224816901584
100,300,313.125,0.532311337000381,19.5782641921871
100,300,313.75,0.533669257504037,19.6340958296963
100,300,314.375,0.535033961964725,19.6899769177499
100,300,315,0.536405494926613,19.7459077714831
100,300,315.625,0.537783901131597,19.801888706113
100,300,316.25,0.539169225521263,19.8579200369497
100,300,316.875,0.540561513238809,19.9140020794067
100,300,317.5,0.541960809631086,19.9701351490115
100,300,318.125,0.543367160250528,20.0263195614165
100,300,318.75,0.544780610857133,20.0825556324093
100,300,319.375,0.546201207420514,20.1388436779233
100,300,320,0.54762899612181,20.1951840140479
100,300,320.625,0.549064023355754,20.2515769570393
100,300,321.25,0.550506335732627,20.3080228233301
100,300,321.875,0.551955980080303,20.3645219295405
100,300,322.5,0.553413003446279,20.4210745924877
100,300,323.125,0.55487745309965,20.4776811291964
100,300,323.75,0.556349376533179,20.5343418569091
100,300,324.375,0.557828821465323,20.5910570930957
100,300,325,0.559315835842297,20.647827155464
100,300,325.625,0.560810467840074,20.7046523619696
100,300,326.25,0.562312765866521,20.7615330308254
100,300,326.875,0.563822778563394,20.8184694805121
100,300,327.5,0.565340554808448,20.8754620297876
100,300,328.125,0.566866143717515,20.9325109976972
100,300,328.75,0.568399594646603,20.989616703583
100,300,329.375,0.569940957193954,21.0467794670939
100,300,330,0.571490281202212,21.1039996081953
100,300,330.625,0.573047616760493,21.1612774471786
100,300,331.25,0.574613014206508,21.2186133046708
100,300,331.875,0.576186524128738,21.2760075016445
100,300,332.5,0.577768197368504,21.333460359427
100,300,333.125,0.579358085022214,21.3909721997101
100,300,333.75,0.580956238443421,21.4485433445595
100,300,334.375,0.582562709245063,21.5061741164241
100,300,335,0.584177549301621,21.563864838146
100,300,335.625,0.585800810751301,21.6216158329693
100,300,336.25,0.587432545998252,21.6794274245497
100,300,336.875,0.58907280771474,21.737299936964
100,300,337.5,0.590721648843412,21.7952336947193
100,300,338.125,0.592379122599501,21.8532290227622
100,300,338.75,0.594045282473064,21.9112862464884
100,300,339.375,0.595720182231257,21.9694056917516
100,300,340,0.597403875920569,22.0275876848729
100,300,340.625,0.599096417869122,22.0858325526502
100,300,341.25,0.600797862688954,22.1441406223668
100,300,341.875,0.602508265278284,22.2025122218015
100,300,342.5,0.60422768082387,22.2609476792367
100,300,343.125,0.605956164803297,22.3194473234685
100,300,343.75,0.607693772987329,22.3780114838152
100,300,344.375,0.609440561442234,22.4366404901263
100,300,345,0.611196586532173,22.4953346727924
100,300,345.625,0.612961904921554,22.5540943627532
100,300,346.25,0.614736573577408,22.6129198915075
100,300,346.875,0.61652064977179,22.6718115911214
100,300,347.5,0.618314191084209,22.7307697942381
100,300,348.125,0.620117255404032,22.7897948340864
100,300,348.75,0.621929900932906,22.8488870444897
100,300,349.375,0.623752186187281,22.9080467598753
100,300,350,0.625584170000787,22.9672743152833
100,300,350.625,0.62742591152674,23.0265700463752
100,300,351.25,0.629277470240684,23.0859342894433
100,300,351.875,0.631138905942843,23.1453673814195
100,300,352.5,0.633010278760655,23.2048696598842
100,300,353.125,0.634891649151338,23.2644414630753
100,300,353.75,0.636783077904399,23.3240831298971
100,300,354.375,0.638684626144255,23.383794999929
100,300,355,0.640596355332758,23.4435774134349
100,300,355.625,0.642518327271847,23.5034307113718
100,300,356.25,0.644450604106124,23.5633552353988
100,300,356.875,0.646393248325504,23.6233513278856
100,300,357.5,0.648346322767877,23.6834193319224
100,300,358.125,0.650309890621734,23.7435595913276
100,300,358.75,0.652284015428857,23.8037724506576
100,300,359.375,0.65426876108706,23.8640582552153
100,300,360,0.656264191852853,23.924417351059
100,300,360.625,0.658270372344176,23.9848500850116
100,300,361.25,0.660287367543165,24.0453568046692
100,300,361.875,0.66231524279895,24.1059378584098
100,300,362.5,0.664354063830344,24.166593595403
100,300,363.125,0.666403896728739,24.2273243656181
100,300,363.75,0.668464807960893,24.2881305198334
100,300,364.375,0.670536864371761,24.3490124096451
100,300,365,0.672620133187347,24.4099703874761
100,300,365.625,0.674714682017598,24.4710048065852
100,300,366.25,0.676820578859282,24.5321160210757
100,300,366.875,0.678937892098919,24.5933043859044
100,300,367.5,0.681066690515725,24.654570256891
100,300,368.125,0.683207043284481,24.7159139907264
100,300,368.75,0.685359019978651,24.777335944982
100,300,369.375,0.687522690573238,24.8388364781189
